Time [s],Packet ID,MOSI,MISO
8.344800540000000,0,0x01,0x00
8.344802200000000,0,0x02,0x00
8.344803880000001,0,0xFF,0x02
8.344811640000000,1,0x02,0x00
8.344813320000000,1,0x02,0x00
8.344814980000001,1,0xFF,0x02
8.344824160000000,2,0x83,0x00
8.344825840000000,2,0x00,0x00
8.344827499999999,2,0x00,0x00
8.344833840000000,3,0x84,0x00
8.344835500000000,3,0x00,0x00
8.344837160000001,3,0x00,0x00
8.344843480000000,4,0x81,0x00
8.344845140000000,4,0x00,0x00
8.344846820000001,4,0x00,0x00
8.344853120000000,5,0x82,0x00
8.344854800000000,5,0x00,0x00
8.344856460000001,5,0x00,0x00
8.344862300000001,6,0x00,0x00
8.344863960000000,6,0x00,0x00
8.344865620000000,6,0xFF,0x01
8.344867960000000,6,0xFF,0x01
8.344870240000001,6,0xFF,0x00
8.344872499999999,6,0xFF,0x00
8.344879160000000,7,0x83,0x00
8.344880840000000,7,0x00,0x00
8.344882500000001,7,0x12,0x00
8.344888820000000,8,0x84,0x00
8.344890480000000,8,0x00,0x00
8.344892140000001,8,0x12,0x00
8.344898460000000,9,0x81,0x00
8.344900120000000,9,0x00,0x00
8.344901800000001,9,0x3F,0x00
8.344908060000000,10,0x82,0x00
8.344909740000000,10,0x00,0x00
8.344911400000001,10,0x3F,0x00
8.344922880000000,11,0x00,0x00
8.344924539999999,11,0x0D,0x00
8.344926220000000,11,0xFF,0x34
8.344933579999999,12,0x00,0x00
8.344935260000000,12,0x0E,0x00
8.344936920000000,12,0xFF,0x01
8.344945360000001,13,0x00,0x00
8.344947019999999,13,0x06,0x00
8.344948700000000,13,0xFF,0x09
8.344956500000000,14,0x80,0x00
8.344958180000001,14,0x06,0x00
8.344959840000000,14,0x09,0x06
8.344967000000000,15,0x00,0x00
8.344968679999999,15,0x07,0x00
8.344970340000000,15,0xFF,0x09
8.344978160000000,16,0x80,0x00
8.344979820000001,16,0x07,0x00
8.344981480000000,16,0x08,0x07
8.345006400000001,17,0x83,0x00
8.345008060000000,17,0x00,0x00
8.345009740000000,17,0x12,0x00
8.345016140000000,18,0x81,0x00
8.345017800000001,18,0x00,0x00
8.345019460000000,18,0x09,0x00
8.345026440000000,19,0x03,0x00
8.345028120000000,19,0x20,0x00
8.345029780000001,19,0xFF,0x00
8.345037639999999,20,0x83,0x00
8.345039300000000,20,0x20,0x00
8.345040960000000,20,0x01,0x20
8.345048060000000,21,0x01,0x00
8.345049740000000,21,0x01,0x00
8.345051399999999,21,0xFF,0x02
8.345059220000000,22,0x81,0x00
8.345060880000000,22,0x01,0x00
8.345062540000001,22,0x0A,0x01
8.345069120000000,23,0x83,0x00
8.345070780000000,23,0x40,0x00
8.345072439999999,23,0x08,0x40
8.345078780000000,24,0x83,0x00
8.345080440000000,24,0x42,0x00
8.345082120000001,24,0x0F,0x42
8.345090320000001,25,0x81,0x00
8.345091979999999,25,0x03,0x00
8.345093660000000,25,0x03,0x03
8.345104380000000,26,0x01,0x00
8.345106060000001,26,0x02,0x00
8.345107720000000,26,0xFF,0x06
8.345129320000000,27,0x01,0x00
8.345130980000000,27,0x02,0x00
8.345132660000001,27,0xFF,0x06
8.345154200000000,28,0x01,0x00
8.345155860000000,28,0x02,0x00
8.345157540000001,28,0xFF,0x06
8.345179079999999,29,0x01,0x00
8.345180740000000,29,0x02,0x00
8.345182400000001,29,0xFF,0x03
8.345191059999999,30,0x81,0x00
8.345192720000000,30,0x03,0x00
8.345194380000001,30,0x02,0x03
8.345201619999999,31,0x83,0x00
8.345203280000000,31,0x00,0x00
8.345204940000000,31,0x00,0x00
8.345211259999999,32,0x84,0x00
8.345212920000000,32,0x00,0x00
8.345214600000000,32,0x00,0x00
8.345220899999999,33,0x81,0x00
8.345222580000000,33,0x00,0x00
8.345224240000000,33,0x00,0x00
8.345230559999999,34,0x82,0x00
8.345232220000000,34,0x00,0x00
8.345233880000000,34,0x00,0x00
8.345239660000001,35,0x01,0x00
8.345241320000000,35,0x25,0x00
8.345243000000000,35,0xFF,0x1F
8.345245380000000,35,0xFF,0x1D
8.345252179999999,36,0x83,0x00
8.345253840000000,36,0x00,0x00
8.345255520000000,36,0x12,0x00
8.345261819999999,37,0x84,0x00
8.345263500000000,37,0x00,0x00
8.345265160000000,37,0x12,0x00
8.345271479999999,38,0x81,0x00
8.345273140000000,38,0x00,0x00
8.345274800000000,38,0x3F,0x00
8.345285179999999,39,0x82,0x00
8.345286840000000,39,0x00,0x00
8.345288520000000,39,0x3F,0x00
8.345295600000000,40,0x81,0x00
8.345297260000001,40,0x03,0x00
8.345298939999999,40,0x03,0x03
8.345309360000000,41,0x01,0x00
8.345311040000000,41,0x02,0x00
8.345312699999999,41,0xFF,0x06
8.345334240000000,42,0x01,0x00
8.345335920000000,42,0x02,0x00
8.345337580000001,42,0xFF,0x06
8.345359119999999,43,0x01,0x00
8.345360780000000,43,0x02,0x00
8.345362460000000,43,0xFF,0x06
8.345383999999999,44,0x01,0x00
8.345385660000000,44,0x02,0x00
8.345387340000000,44,0xFF,0x03
8.345395979999999,45,0x81,0x00
8.345397640000000,45,0x03,0x00
8.345399300000000,45,0x02,0x03
8.345406420000000,46,0x83,0x00
8.345408080000000,46,0x00,0x00
8.345409739999999,46,0x00,0x00
8.345416020000000,47,0x84,0x00
8.345417680000001,47,0x00,0x00
8.345419359999999,47,0x00,0x00
8.345425620000000,48,0x81,0x00
8.345427279999999,48,0x00,0x00
8.345428960000000,48,0x00,0x00
8.345435220000001,49,0x82,0x00
8.345436899999999,49,0x00,0x00
8.345438560000000,49,0x00,0x00
8.345444120000000,50,0x01,0x00
8.345445800000000,50,0x25,0x00
8.345447460000001,50,0xFF,0x1F
8.345449720000000,50,0xFF,0x1D
8.345456420000000,51,0x83,0x00
8.345458080000000,51,0x00,0x00
8.345459740000001,51,0x12,0x00
8.345466020000000,52,0x84,0x00
8.345467680000000,52,0x00,0x00
8.345469359999999,52,0x12,0x00
8.345475620000000,53,0x81,0x00
8.345477300000001,53,0x00,0x00
8.345478959999999,53,0x3F,0x00
8.345488860000000,54,0x82,0x00
8.345490520000000,54,0x00,0x00
8.345492180000001,54,0x3F,0x00
8.345499360000000,55,0x81,0x00
8.345501020000000,55,0x03,0x00
8.345502679999999,55,0x03,0x03
8.345513120000000,56,0x01,0x00
8.345514800000000,56,0x02,0x00
8.345516460000001,56,0xFF,0x06
8.345537999999999,57,0x01,0x00
8.345539660000000,57,0x02,0x00
8.345541340000000,57,0xFF,0x06
8.345562879999999,58,0x01,0x00
8.345564540000000,58,0x02,0x00
8.345566220000000,58,0xFF,0x06
8.345587760000001,59,0x01,0x00
8.345589420000000,59,0x02,0x00
8.345591080000000,59,0xFF,0x03
8.345599740000001,60,0x81,0x00
8.345601400000000,60,0x03,0x00
8.345603060000000,60,0x02,0x03
8.345610160000000,61,0x83,0x00
8.345611840000000,61,0x00,0x00
8.345613500000001,61,0x00,0x00
8.345619780000000,62,0x84,0x00
8.345621440000000,62,0x00,0x00
8.345623099999999,62,0x00,0x00
8.345629380000000,63,0x81,0x00
8.345631040000001,63,0x00,0x00
8.345632719999999,63,0x00,0x00
8.345638980000000,64,0x82,0x00
8.345640660000001,64,0x00,0x00
8.345642320000000,64,0x00,0x00
8.345647880000000,65,0x01,0x00
8.345649540000000,65,0x25,0x00
8.345651220000001,65,0xFF,0x1F
8.345653479999999,65,0xFF,0x1D
8.345660179999999,66,0x83,0x00
8.345661840000000,66,0x00,0x00
8.345663500000001,66,0x12,0x00
8.345669780000000,67,0x84,0x00
8.345671440000000,67,0x00,0x00
8.345673100000001,67,0x12,0x00
8.345679380000000,68,0x81,0x00
8.345681040000001,68,0x00,0x00
8.345682719999999,68,0x3F,0x00
8.345692600000000,69,0x82,0x00
8.345694280000000,69,0x00,0x00
8.345695940000001,69,0x3F,0x00
8.345749959999999,70,0x83,0x00
8.345751640000000,70,0x00,0x00
8.345753300000000,70,0x00,0x00
8.345759800000000,71,0x84,0x00
8.345761460000000,71,0x00,0x00
8.345763140000001,71,0x00,0x00
8.345769560000001,72,0x81,0x00
8.345771239999999,72,0x00,0x00
8.345772900000000,72,0x00,0x00
8.345779380000000,73,0x82,0x00
8.345781040000000,73,0x00,0x00
8.345782720000001,73,0x00,0x00
8.345788840000001,74,0x83,0x00
8.345790500000000,74,0x2D,0x00
8.345792180000000,74,0xFF,0x2D
8.345793840000001,74,0xFF,0xFF
8.345800219999999,75,0x83,0x00
8.345801880000000,75,0x00,0x00
8.345803540000000,75,0x12,0x00
8.345810159999999,76,0x84,0x00
8.345811820000000,76,0x00,0x00
8.345813480000000,76,0x12,0x00
8.345819980000000,77,0x81,0x00
8.345821660000000,77,0x00,0x00
8.345823319999999,77,0x3F,0x00
8.345833839999999,78,0x82,0x00
8.345835500000000,78,0x00,0x00
8.345837180000000,78,0x3F,0x00
8.345844319999999,79,0x83,0x00
8.345845980000000,79,0x00,0x00
8.345847660000000,79,0x00,0x00
8.345853940000000,80,0x84,0x00
8.345855620000000,80,0x00,0x00
8.345857280000001,80,0x00,0x00
8.345863720000001,81,0x81,0x00
8.345865379999999,81,0x00,0x00
8.345867060000000,81,0x00,0x00
8.345873539999999,82,0x82,0x00
8.345875200000000,82,0x00,0x00
8.345876860000001,82,0x00,0x00
8.345882800000000,83,0x83,0x00
8.345884460000001,83,0x2F,0x00
8.345886139999999,83,0xFF,0x2F
8.345887800000000,83,0xFF,0xFF
8.345894180000000,84,0x83,0x00
8.345895840000001,84,0x00,0x00
8.345897519999999,84,0x12,0x00
8.345904120000000,85,0x84,0x00
8.345905780000001,85,0x00,0x00
8.345907440000000,85,0x12,0x00
8.345913940000001,86,0x81,0x00
8.345915620000000,86,0x00,0x00
8.345917280000000,86,0x3F,0x00
8.345927240000000,87,0x82,0x00
8.345928900000001,87,0x00,0x00
8.345930579999999,87,0x3F,0x00
8.345937720000000,88,0x83,0x00
8.345939380000001,88,0x00,0x00
8.345941059999999,88,0x00,0x00
8.345947340000000,89,0x84,0x00
8.345949020000001,89,0x00,0x00
8.345950680000000,89,0x00,0x00
8.345957120000000,90,0x81,0x00
8.345958780000000,90,0x00,0x00
8.345960460000001,90,0x00,0x00
8.345966920000000,91,0x82,0x00
8.345968600000001,91,0x00,0x00
8.345970260000000,91,0x00,0x00
8.345976200000001,92,0x83,0x00
8.345977860000000,92,0x25,0x00
8.345979540000000,92,0x00,0x25
8.345981200000001,92,0x00,0x00
8.345982859999999,92,0x00,0x00
8.345984540000000,92,0x00,0x00
8.345986200000000,92,0x00,0x00
8.345987859999999,92,0x00,0x00
8.345989540000000,92,0x00,0x00
8.345991200000000,92,0x00,0x00
8.345997580000001,93,0x83,0x00
8.345999239999999,93,0x00,0x00
8.346000900000000,93,0x12,0x00
8.346007520000001,94,0x84,0x00
8.346009179999999,94,0x00,0x00
8.346010840000000,94,0x12,0x00
8.346017340000000,95,0x81,0x00
8.346019020000000,95,0x00,0x00
8.346020680000001,95,0x3F,0x00
8.346030640000000,96,0x82,0x00
8.346032299999999,96,0x00,0x00
8.346033980000000,96,0x3F,0x00
8.346041939999999,97,0x03,0x00
8.346043600000000,97,0x14,0x00
8.346045260000000,97,0xFF,0x00
8.346053240000000,98,0x83,0x00
8.346054920000000,98,0x14,0x00
8.346056580000001,98,0x00,0x14
8.346064340000000,99,0x03,0x00
8.346066020000000,99,0x6A,0x00
8.346067680000001,99,0xFF,0x04
8.346075500000000,100,0x83,0x00
8.346077160000000,100,0x6A,0x00
8.346078820000001,100,0x04,0x6A
8.346086020000000,101,0x03,0x00
8.346087680000000,101,0x62,0x00
8.346089360000001,101,0xFF,0x41
8.346097159999999,102,0x83,0x00
8.346098820000000,102,0x62,0x00
8.346100500000000,102,0x40,0x62
8.346107600000000,103,0x03,0x00
8.346109260000000,103,0x62,0x00
8.346110940000001,103,0xFF,0x40
8.346118740000000,104,0x83,0x00
8.346120420000000,104,0x62,0x00
8.346122080000001,104,0x40,0x62
8.346128820000001,105,0x83,0x00
8.346130499999999,105,0x65,0x00
8.346132160000000,105,0x08,0x65
8.346139060000000,106,0x03,0x00
8.346140719999999,106,0x61,0x00
8.346142400000000,106,0xFF,0x00
8.346150200000000,107,0x83,0x00
8.346151880000001,107,0x61,0x00
8.346153540000000,107,0x00,0x61
8.346160579999999,108,0x03,0x00
8.346162240000000,108,0x6A,0x00
8.346163920000000,108,0xFF,0x04
8.346171719999999,109,0x83,0x00
8.346173400000000,109,0x6A,0x00
8.346175060000000,109,0x04,0x6A
8.346182420000000,110,0x03,0x00
8.346184080000000,110,0x0C,0x00
8.346185739999999,110,0xFF,0x00
8.346193560000000,111,0x83,0x00
8.346195220000000,111,0x0C,0x00
8.346196900000001,111,0x03,0x0C
8.346204000000000,112,0x03,0x00
8.346205660000001,112,0x0E,0x00
8.346207339999999,112,0xFF,0x00
8.346215140000000,113,0x83,0x00
8.346216820000000,113,0x0E,0x00
8.346218479999999,113,0x00,0x0E
8.346226500000000,114,0x01,0x00
8.346228160000001,114,0x02,0x00
8.346229839999999,114,0xFF,0x02
8.346239440000000,115,0x03,0x00
8.346241100000000,115,0x0E,0x00
8.346242780000001,115,0xFF,0x00
8.346250919999999,116,0x03,0x00
8.346252580000000,116,0x0D,0x00
8.346254260000000,116,0xFF,0x00
8.346263660000000,117,0x83,0x00
8.346265340000000,117,0x00,0x00
8.346266999999999,117,0x00,0x00
8.346273419999999,118,0x84,0x00
8.346275080000000,118,0x00,0x00
8.346276760000000,118,0x00,0x00
8.346283180000000,119,0x81,0x00
8.346284860000001,119,0x00,0x00
8.346286520000000,119,0x00,0x00
8.346292999999999,120,0x82,0x00
8.346294660000000,120,0x00,0x00
8.346296340000000,120,0x00,0x00
8.346302460000000,121,0x81,0x00
8.346304119999999,121,0x12,0x00
8.346305800000000,121,0x0A,0x12
8.346307460000000,121,0x83,0x0A
8.346309120000001,121,0x74,0x83
8.346315440000000,122,0x83,0x00
8.346317100000000,122,0x00,0x00
8.346318780000001,122,0x12,0x00
8.346325380000000,123,0x84,0x00
8.346327040000000,123,0x00,0x00
8.346328720000001,123,0x12,0x00
8.346335220000000,124,0x81,0x00
8.346336880000001,124,0x00,0x00
8.346338540000000,124,0x3F,0x00
8.346349040000000,125,0x82,0x00
8.346350720000000,125,0x00,0x00
8.346352380000001,125,0x3F,0x00
8.346360340000000,126,0x83,0x00
8.346361999999999,126,0x00,0x00
8.346363680000000,126,0x00,0x00
8.346369960000001,127,0x84,0x00
8.346371619999999,127,0x00,0x00
8.346373300000000,127,0x00,0x00
8.346379740000000,128,0x81,0x00
8.346381400000000,128,0x00,0x00
8.346383060000001,128,0x00,0x00
8.346389540000001,129,0x82,0x00
8.346391219999999,129,0x00,0x00
8.346392880000000,129,0x00,0x00
8.346398819999999,130,0x81,0x00
8.346400480000000,130,0x09,0x00
8.346402160000000,130,0x19,0x09
8.346403820000001,130,0x83,0x19
8.346405480000000,130,0x81,0x83
8.346407160000000,130,0x77,0x81
8.346413580000000,131,0x83,0x00
8.346415260000001,131,0x00,0x00
8.346416919999999,131,0x12,0x00
8.346423520000000,132,0x84,0x00
8.346425200000001,132,0x00,0x00
8.346426859999999,132,0x12,0x00
8.346433360000001,133,0x81,0x00
8.346435019999999,133,0x00,0x00
8.346436700000000,133,0x3F,0x00
8.346446660000000,134,0x82,0x00
8.346448320000000,134,0x00,0x00
8.346449979999999,134,0x3F,0x00
8.346457380000000,135,0x03,0x00
8.346459039999999,135,0x0F,0x00
8.346460720000000,135,0xFF,0x70
8.346468420000001,136,0x83,0x00
8.346470099999999,136,0x0F,0x00
8.346471760000000,136,0xB0,0x0F
8.346481819999999,137,0x03,0x00
8.346483480000000,137,0x01,0x00
8.346485160000000,137,0xFF,0x54
8.346492820000000,138,0x83,0x00
8.346494480000000,138,0x01,0x00
8.346496159999999,138,0x56,0x01
8.346503459999999,139,0x03,0x00
8.346505140000000,139,0x0E,0x00
8.346506800000000,139,0xFF,0x00
8.346514620000001,140,0x83,0x00
8.346516279999999,140,0x0E,0x00
8.346517940000000,140,0x00,0x0E
8.346524700000000,141,0x03,0x00
8.346526360000000,141,0x00,0x00
8.346528019999999,141,0xFF,0x12
8.346539760000001,142,0x83,0x00
8.346541419999999,142,0x00,0x00
8.346543100000000,142,0x00,0x00
8.346549400000001,143,0x84,0x00
8.346551079999999,143,0x00,0x00
8.346552740000000,143,0x00,0x00
8.346559180000000,144,0x81,0x00
8.346560840000000,144,0x00,0x00
8.346562499999999,144,0x00,0x00
8.346568980000001,145,0x82,0x00
8.346570659999999,145,0x00,0x00
8.346572320000000,145,0x00,0x00
8.346578440000000,146,0x81,0x00
8.346580120000000,146,0x05,0x00
8.346581779999999,146,0x20,0x05
8.346583440000000,146,0x8D,0x20
8.346589820000000,147,0x83,0x00
8.346591480000001,147,0x00,0x00
8.346593159999999,147,0x12,0x00
8.346599760000000,148,0x84,0x00
8.346601420000001,148,0x00,0x00
8.346603099999999,148,0x12,0x00
8.346609600000001,149,0x81,0x00
8.346611260000000,149,0x00,0x00
8.346612920000000,149,0x3F,0x00
8.346622940000000,150,0x82,0x00
8.346624620000000,150,0x00,0x00
8.346626280000001,150,0x3F,0x00
8.346633239999999,151,0x81,0x00
8.346634900000000,151,0x04,0x00
8.346636580000000,151,0x30,0x04
8.346647259999999,152,0x83,0x00
8.346648920000000,152,0x00,0x00
8.346650600000000,152,0x00,0x00
8.346657020000000,153,0x84,0x00
8.346658680000001,153,0x00,0x00
8.346660340000000,153,0x00,0x00
8.346666780000000,154,0x81,0x00
8.346668460000000,154,0x00,0x00
8.346670120000001,154,0x00,0x00
8.346676600000000,155,0x82,0x00
8.346678259999999,155,0x00,0x00
8.346679920000000,155,0x00,0x00
8.346685859999999,156,0x81,0x00
8.346687540000000,156,0x07,0x00
8.346689200000000,156,0x00,0x07
8.346690860000001,156,0x00,0x00
8.346697239999999,157,0x83,0x00
8.346698900000000,157,0x00,0x00
8.346700580000000,157,0x12,0x00
8.346707179999999,158,0x84,0x00
8.346708840000000,158,0x00,0x00
8.346710520000000,158,0x12,0x00
8.346717020000000,159,0x81,0x00
8.346718680000000,159,0x00,0x00
8.346720339999999,159,0x3F,0x00
8.346730500000000,160,0x82,0x00
8.346732160000000,160,0x00,0x00
8.346733820000001,160,0x3F,0x00
8.346742100000000,161,0x81,0x00
8.346743760000001,161,0x0F,0x00
8.346745439999999,161,0x7A,0x0F
8.346752560000001,162,0x03,0x00
8.346754219999999,162,0x01,0x00
8.346755900000000,162,0xFF,0x56
8.346763780000000,163,0x83,0x00
8.346765460000000,163,0x01,0x00
8.346767120000001,163,0x56,0x01
8.346773799999999,164,0x83,0x00
8.346775480000000,164,0x41,0x00
8.346777140000000,164,0xAC,0x41
8.346784080000001,165,0x83,0x00
8.346785740000000,165,0x00,0x00
8.346787420000000,165,0x00,0x00
8.346793820000000,166,0x84,0x00
8.346795500000001,166,0x00,0x00
8.346797159999999,166,0x00,0x00
8.346803599999999,167,0x81,0x00
8.346805260000000,167,0x00,0x00
8.346806940000000,167,0x00,0x00
8.346813420000000,168,0x82,0x00
8.346815080000001,168,0x00,0x00
8.346816740000000,168,0x00,0x00
8.346822880000000,169,0x83,0x00
8.346824540000000,169,0x43,0x00
8.346826200000001,169,0xD4,0x43
8.346827879999999,169,0x03,0xD4
8.346834240000000,170,0x83,0x00
8.346835920000000,170,0x00,0x00
8.346837580000001,170,0x12,0x00
8.346844180000000,171,0x84,0x00
8.346845860000000,171,0x00,0x00
8.346847520000001,171,0x12,0x00
8.346854020000000,172,0x81,0x00
8.346855680000001,172,0x00,0x00
8.346857360000000,172,0x3F,0x00
8.346867319999999,173,0x82,0x00
8.346869000000000,173,0x00,0x00
8.346870660000000,173,0x3F,0x00
8.346884100000000,174,0x84,0x00
8.346885759999999,174,0x00,0x00
8.346887440000000,174,0x12,0x00
8.346893900000000,175,0x82,0x00
8.346895560000000,175,0x00,0x00
8.346897220000001,175,0x09,0x00
8.346904380000000,176,0x04,0x00
8.346906040000000,176,0x20,0x00
8.346907699999999,176,0xFF,0x00
8.346915400000000,177,0x84,0x00
8.346917060000001,177,0x20,0x00
8.346918720000000,177,0x01,0x20
8.346925840000001,178,0x02,0x00
8.346927500000000,178,0x01,0x00
8.346929160000000,178,0xFF,0x02
8.346936980000001,179,0x82,0x00
8.346938639999999,179,0x01,0x00
8.346940320000000,179,0x0A,0x01
8.346946880000001,180,0x84,0x00
8.346948540000000,180,0x40,0x00
8.346950200000000,180,0x08,0x40
8.346956540000001,181,0x84,0x00
8.346958200000000,181,0x42,0x00
8.346959880000000,181,0x0F,0x42
8.346968080000000,182,0x82,0x00
8.346969760000000,182,0x03,0x00
8.346971419999999,182,0x03,0x03
8.346982120000000,183,0x02,0x00
8.346983800000000,183,0x02,0x00
8.346985460000001,183,0xFF,0x06
8.347007059999999,184,0x02,0x00
8.347008720000000,184,0x02,0x00
8.347010400000000,184,0xFF,0x06
8.347031940000001,185,0x02,0x00
8.347033600000000,185,0x02,0x00
8.347035280000000,185,0xFF,0x06
8.347056820000001,186,0x02,0x00
8.347058479999999,186,0x02,0x00
8.347060140000000,186,0xFF,0x03
8.347068800000001,187,0x82,0x00
8.347070459999999,187,0x03,0x00
8.347072120000000,187,0x02,0x03
8.347079440000000,188,0x83,0x00
8.347081100000000,188,0x00,0x00
8.347082779999999,188,0x00,0x00
8.347089080000000,189,0x84,0x00
8.347090760000000,189,0x00,0x00
8.347092419999999,189,0x00,0x00
8.347098740000000,190,0x81,0x00
8.347100400000000,190,0x00,0x00
8.347102059999999,190,0x00,0x00
8.347108380000000,191,0x82,0x00
8.347110040000000,191,0x00,0x00
8.347111719999999,191,0x00,0x00
8.347117539999999,192,0x02,0x00
8.347119220000000,192,0x25,0x00
8.347120880000000,192,0xFF,0x1F
8.347123280000000,192,0xFF,0x27
8.347130060000000,193,0x83,0x00
8.347131740000000,193,0x00,0x00
8.347133400000001,193,0x12,0x00
8.347139719999999,194,0x84,0x00
8.347141380000000,194,0x00,0x00
8.347143040000001,194,0x12,0x00
8.347149360000000,195,0x81,0x00
8.347151020000000,195,0x00,0x00
8.347152700000001,195,0x3F,0x00
8.347162640000001,196,0x82,0x00
8.347164319999999,196,0x00,0x00
8.347165980000000,196,0x3F,0x00
8.347173059999999,197,0x82,0x00
8.347174740000000,197,0x03,0x00
8.347176400000000,197,0x03,0x03
8.347186840000001,198,0x02,0x00
8.347188500000000,198,0x02,0x00
8.347190180000000,198,0xFF,0x06
8.347211720000001,199,0x02,0x00
8.347213379999999,199,0x02,0x00
8.347215060000000,199,0xFF,0x06
8.347236580000001,200,0x02,0x00
8.347238259999999,200,0x02,0x00
8.347239920000000,200,0xFF,0x06
8.347261460000000,201,0x02,0x00
8.347263140000001,201,0x02,0x00
8.347264800000000,201,0xFF,0x03
8.347273440000000,202,0x82,0x00
8.347275120000001,202,0x03,0x00
8.347276780000000,202,0x02,0x03
8.347283880000001,203,0x83,0x00
8.347285560000000,203,0x00,0x00
8.347287220000000,203,0x00,0x00
8.347293479999999,204,0x84,0x00
8.347295160000000,204,0x00,0x00
8.347296820000000,204,0x00,0x00
8.347303100000000,205,0x81,0x00
8.347304760000000,205,0x00,0x00
8.347306420000001,205,0x00,0x00
8.347312700000000,206,0x82,0x00
8.347314360000000,206,0x00,0x00
8.347316040000001,206,0x00,0x00
8.347321600000001,207,0x02,0x00
8.347323260000000,207,0x25,0x00
8.347324920000000,207,0xFF,0x21
8.347327200000001,207,0xFF,0x27
8.347333880000001,208,0x83,0x00
8.347335559999999,208,0x00,0x00
8.347337220000000,208,0x12,0x00
8.347343499999999,209,0x84,0x00
8.347345160000000,209,0x00,0x00
8.347346820000000,209,0x12,0x00
8.347353099999999,210,0x81,0x00
8.347354760000000,210,0x00,0x00
8.347356420000001,210,0x3F,0x00
8.347366320000001,211,0x82,0x00
8.347367999999999,211,0x00,0x00
8.347369660000000,211,0x3F,0x00
8.347376819999999,212,0x82,0x00
8.347378500000000,212,0x03,0x00
8.347380160000000,212,0x03,0x03
8.347390600000001,213,0x02,0x00
8.347392259999999,213,0x02,0x00
8.347393920000000,213,0xFF,0x06
8.347415460000001,214,0x02,0x00
8.347417139999999,214,0x02,0x00
8.347418800000000,214,0xFF,0x06
8.347440340000000,215,0x02,0x00
8.347442020000001,215,0x02,0x00
8.347443680000000,215,0xFF,0x06
8.347465220000000,216,0x02,0x00
8.347466880000001,216,0x02,0x00
8.347468559999999,216,0xFF,0x03
8.347477200000000,217,0x82,0x00
8.347478860000001,217,0x03,0x00
8.347480539999999,217,0x02,0x03
8.347487640000001,218,0x83,0x00
8.347489299999999,218,0x00,0x00
8.347490980000000,218,0x00,0x00
8.347501540000000,219,0x84,0x00
8.347503200000000,219,0x00,0x00
8.347504880000001,219,0x00,0x00
8.347511180000000,220,0x81,0x00
8.347512840000000,220,0x00,0x00
8.347514520000001,220,0x00,0x00
8.347520780000000,221,0x82,0x00
8.347522460000000,221,0x00,0x00
8.347524119999999,221,0x00,0x00
8.347529679999999,222,0x02,0x00
8.347531360000000,222,0x25,0x00
8.347533020000000,222,0xFF,0x21
8.347535320000000,222,0xFF,0x25
8.347542020000001,223,0x83,0x00
8.347543679999999,223,0x00,0x00
8.347545360000000,223,0x12,0x00
8.347551620000001,224,0x84,0x00
8.347553280000000,224,0x00,0x00
8.347554960000000,224,0x12,0x00
8.347561219999999,225,0x81,0x00
8.347562900000000,225,0x00,0x00
8.347564560000000,225,0x3F,0x00
8.347574679999999,226,0x82,0x00
8.347576360000000,226,0x00,0x00
8.347578020000000,226,0x3F,0x00
8.347635140000000,227,0x83,0x00
8.347636820000000,227,0x00,0x00
8.347638480000001,227,0x00,0x00
8.347644980000000,228,0x84,0x00
8.347646640000001,228,0x00,0x00
8.347648319999999,228,0x00,0x00
8.347654739999999,229,0x81,0x00
8.347656420000000,229,0x00,0x00
8.347658080000000,229,0x00,0x00
8.347664560000000,230,0x82,0x00
8.347666220000001,230,0x00,0x00
8.347667899999999,230,0x00,0x00
8.347674019999999,231,0x84,0x00
8.347675680000000,231,0x2D,0x00
8.347677360000000,231,0xFF,0x2D
8.347679019999999,231,0xFF,0xFF
8.347685400000000,232,0x83,0x00
8.347687060000000,232,0x00,0x00
8.347688720000001,232,0x12,0x00
8.347695340000000,233,0x84,0x00
8.347697000000000,233,0x00,0x00
8.347698660000001,233,0x12,0x00
8.347705160000000,234,0x81,0x00
8.347706840000001,234,0x00,0x00
8.347708500000000,234,0x3F,0x00
8.347718900000000,235,0x82,0x00
8.347720560000001,235,0x00,0x00
8.347722240000000,235,0x3F,0x00
8.347729380000001,236,0x83,0x00
8.347731039999999,236,0x00,0x00
8.347732700000000,236,0x00,0x00
8.347739000000001,237,0x84,0x00
8.347740659999999,237,0x00,0x00
8.347742340000000,237,0x00,0x00
8.347748780000000,238,0x81,0x00
8.347750440000000,238,0x00,0x00
8.347752099999999,238,0x00,0x00
8.347758580000001,239,0x82,0x00
8.347760259999999,239,0x00,0x00
8.347761920000000,239,0x00,0x00
8.347767859999999,240,0x84,0x00
8.347769520000000,240,0x2F,0x00
8.347771200000000,240,0xFF,0x2F
8.347772859999999,240,0xFF,0xFF
8.347779239999999,241,0x83,0x00
8.347780900000000,241,0x00,0x00
8.347782560000001,241,0x12,0x00
8.347789160000000,242,0x84,0x00
8.347790840000000,242,0x00,0x00
8.347792500000001,242,0x12,0x00
8.347799000000000,243,0x81,0x00
8.347800680000001,243,0x00,0x00
8.347802339999999,243,0x3F,0x00
8.347812299999999,244,0x82,0x00
8.347813960000000,244,0x00,0x00
8.347815620000000,244,0x3F,0x00
8.347822780000000,245,0x83,0x00
8.347824440000000,245,0x00,0x00
8.347826100000001,245,0x00,0x00
8.347832400000000,246,0x84,0x00
8.347834060000000,246,0x00,0x00
8.347835740000001,246,0x00,0x00
8.347842180000001,247,0x81,0x00
8.347843839999999,247,0x00,0x00
8.347845500000000,247,0x00,0x00
8.347851980000000,248,0x82,0x00
8.347853660000000,248,0x00,0x00
8.347855320000001,248,0x00,0x00
8.347861260000000,249,0x84,0x00
8.347862920000001,249,0x25,0x00
8.347864580000000,249,0x00,0x25
8.347866260000000,249,0x00,0x00
8.347867920000001,249,0x00,0x00
8.347869579999999,249,0x00,0x00
8.347871260000000,249,0x00,0x00
8.347872920000000,249,0x00,0x00
8.347874579999999,249,0x00,0x00
8.347876260000000,249,0x00,0x00
8.347882640000000,250,0x83,0x00
8.347884300000000,250,0x00,0x00
8.347885959999999,250,0x12,0x00
8.347892560000000,251,0x84,0x00
8.347894240000000,251,0x00,0x00
8.347895899999999,251,0x12,0x00
8.347902400000001,252,0x81,0x00
8.347904059999999,252,0x00,0x00
8.347905740000000,252,0x3F,0x00
8.347915700000000,253,0x82,0x00
8.347917360000000,253,0x00,0x00
8.347919020000001,253,0x3F,0x00
8.347927200000001,254,0x04,0x00
8.347928860000000,254,0x14,0x00
8.347930520000000,254,0xFF,0x00
8.347938559999999,255,0x84,0x00
8.347940240000000,255,0x14,0x00
8.347941900000000,255,0x00,0x14
8.347949679999999,256,0x04,0x00
8.347951340000000,256,0x6A,0x00
8.347953000000000,256,0xFF,0x04
8.347960820000001,257,0x84,0x00
8.347962480000000,257,0x6A,0x00
8.347964160000000,257,0x04,0x6A
8.347971340000001,258,0x04,0x00
8.347973000000000,258,0x62,0x00
8.347974680000000,258,0xFF,0x41
8.347982480000001,259,0x84,0x00
8.347984159999999,259,0x62,0x00
8.347985820000000,259,0x40,0x62
8.347992919999999,260,0x04,0x00
8.347994600000000,260,0x62,0x00
8.347996260000000,260,0xFF,0x40
8.348004080000001,261,0x84,0x00
8.348005740000000,261,0x62,0x00
8.348007400000000,261,0x40,0x62
8.348014160000000,262,0x84,0x00
8.348015820000001,262,0x65,0x00
8.348017479999999,262,0x08,0x65
8.348024380000000,263,0x04,0x00
8.348026060000000,263,0x61,0x00
8.348027719999999,263,0xFF,0x00
8.348035540000000,264,0x84,0x00
8.348037200000000,264,0x61,0x00
8.348038860000001,264,0x00,0x61
8.348045900000001,265,0x04,0x00
8.348047579999999,265,0x6A,0x00
8.348049240000000,265,0xFF,0x04
8.348057060000000,266,0x84,0x00
8.348058719999999,266,0x6A,0x00
8.348060380000000,266,0x04,0x6A
8.348067739999999,267,0x04,0x00
8.348069400000000,267,0x0C,0x00
8.348071080000000,267,0xFF,0x00
8.348078879999999,268,0x84,0x00
8.348080560000000,268,0x0C,0x00
8.348082220000000,268,0x03,0x0C
8.348089320000000,269,0x04,0x00
8.348091000000000,269,0x0E,0x00
8.348092660000001,269,0xFF,0x00
8.348100460000000,270,0x84,0x00
8.348102140000000,270,0x0E,0x00
8.348103800000001,270,0x00,0x0E
8.348111800000000,271,0x02,0x00
8.348113460000000,271,0x02,0x00
8.348115140000001,271,0xFF,0x02
8.348124680000000,272,0x04,0x00
8.348126340000000,272,0x0E,0x00
8.348128020000001,272,0xFF,0x00
8.348136159999999,273,0x04,0x00
8.348137820000000,273,0x0D,0x00
8.348139500000000,273,0xFF,0x00
8.348148900000000,274,0x83,0x00
8.348150580000000,274,0x00,0x00
8.348152239999999,274,0x00,0x00
8.348158659999999,275,0x84,0x00
8.348160320000000,275,0x00,0x00
8.348162000000000,275,0x00,0x00
8.348168420000000,276,0x81,0x00
8.348170100000001,276,0x00,0x00
8.348171760000000,276,0x00,0x00
8.348178239999999,277,0x82,0x00
8.348179920000000,277,0x00,0x00
8.348181580000000,277,0x00,0x00
8.348187700000000,278,0x82,0x00
8.348189359999999,278,0x12,0x00
8.348191040000000,278,0x0A,0x12
8.348192700000000,278,0x83,0x0A
8.348194360000001,278,0x74,0x83
8.348200680000000,279,0x83,0x00
8.348202340000000,279,0x00,0x00
8.348204020000001,279,0x12,0x00
8.348210620000000,280,0x84,0x00
8.348212280000000,280,0x00,0x00
8.348213960000001,280,0x12,0x00
8.348220460000000,281,0x81,0x00
8.348222120000001,281,0x00,0x00
8.348223780000000,281,0x3F,0x00
8.348234280000000,282,0x82,0x00
8.348235960000000,282,0x00,0x00
8.348237620000001,282,0x3F,0x00
8.348245840000001,283,0x83,0x00
8.348247519999999,283,0x00,0x00
8.348249180000000,283,0x00,0x00
8.348255480000001,284,0x84,0x00
8.348257139999999,284,0x00,0x00
8.348258800000000,284,0x00,0x00
8.348265240000000,285,0x81,0x00
8.348266920000000,285,0x00,0x00
8.348268579999999,285,0x00,0x00
8.348275060000001,286,0x82,0x00
8.348276719999999,286,0x00,0x00
8.348278400000000,286,0x00,0x00
8.348284319999999,287,0x82,0x00
8.348286000000000,287,0x09,0x00
8.348287660000000,287,0x1A,0x09
8.348289339999999,287,0x83,0x1A
8.348291000000000,287,0x81,0x83
8.348292660000000,287,0x77,0x81
8.348299100000000,288,0x83,0x00
8.348300760000001,288,0x00,0x00
8.348302439999999,288,0x12,0x00
8.348309040000000,289,0x84,0x00
8.348310700000001,289,0x00,0x00
8.348312379999999,289,0x12,0x00
8.348318880000001,290,0x81,0x00
8.348320540000000,290,0x00,0x00
8.348322200000000,290,0x3F,0x00
8.348332160000000,291,0x82,0x00
8.348333840000000,291,0x00,0x00
8.348335499999999,291,0x3F,0x00
8.348342980000000,292,0x04,0x00
8.348344640000001,292,0x0F,0x00
8.348346319999999,292,0xFF,0x70
8.348354020000000,293,0x84,0x00
8.348355679999999,293,0x0F,0x00
8.348357360000000,293,0xB0,0x0F
8.348367420000001,294,0x04,0x00
8.348369079999999,294,0x01,0x00
8.348370740000000,294,0xFF,0x54
8.348378420000000,295,0x84,0x00
8.348380080000000,295,0x01,0x00
8.348381740000001,295,0x56,0x01
8.348389060000001,296,0x04,0x00
8.348390719999999,296,0x0E,0x00
8.348392400000000,296,0xFF,0x00
8.348400200000000,297,0x84,0x00
8.348401880000001,297,0x0E,0x00
8.348403540000000,297,0x00,0x0E
8.348410299999999,298,0x04,0x00
8.348411960000000,298,0x00,0x00
8.348413620000001,298,0xFF,0x12
8.348425420000000,299,0x83,0x00
8.348427080000000,299,0x00,0x00
8.348428759999999,299,0x00,0x00
8.348435179999999,300,0x84,0x00
8.348436860000000,300,0x00,0x00
8.348438520000000,300,0x00,0x00
8.348444960000000,301,0x81,0x00
8.348446620000001,301,0x00,0x00
8.348448299999999,301,0x00,0x00
8.348454780000001,302,0x82,0x00
8.348456440000000,302,0x00,0x00
8.348458100000000,302,0x00,0x00
8.348464240000000,303,0x82,0x00
8.348465900000001,303,0x05,0x00
8.348467560000000,303,0xD0,0x05
8.348469240000000,303,0x8C,0xD0
8.348475600000000,304,0x83,0x00
8.348477279999999,304,0x00,0x00
8.348478940000000,304,0x12,0x00
8.348485540000000,305,0x84,0x00
8.348487199999999,305,0x00,0x00
8.348488880000000,305,0x12,0x00
8.348495379999999,306,0x81,0x00
8.348497040000000,306,0x00,0x00
8.348498720000000,306,0x3F,0x00
8.348508740000000,307,0x82,0x00
8.348510400000000,307,0x00,0x00
8.348512059999999,307,0x3F,0x00
8.348519019999999,308,0x82,0x00
8.348520700000000,308,0x04,0x00
8.348522360000000,308,0x30,0x04
8.348533820000000,309,0x83,0x00
8.348535480000001,309,0x00,0x00
8.348537139999999,309,0x00,0x00
8.348543560000000,310,0x84,0x00
8.348545240000000,310,0x00,0x00
8.348546900000001,310,0x00,0x00
8.348553340000000,311,0x81,0x00
8.348554999999999,311,0x00,0x00
8.348556680000000,311,0x00,0x00
8.348563140000000,312,0x82,0x00
8.348564820000000,312,0x00,0x00
8.348566480000001,312,0x00,0x00
8.348572420000000,313,0x82,0x00
8.348574080000001,313,0x07,0x00
8.348575759999999,313,0x00,0x07
8.348577420000000,313,0x00,0x00
8.348583800000000,314,0x83,0x00
8.348585460000001,314,0x00,0x00
8.348587119999999,314,0x12,0x00
8.348593740000000,315,0x84,0x00
8.348595400000001,315,0x00,0x00
8.348597059999999,315,0x12,0x00
8.348603560000001,316,0x81,0x00
8.348605239999999,316,0x00,0x00
8.348606900000000,316,0x3F,0x00
8.348616979999999,317,0x82,0x00
8.348618660000000,317,0x00,0x00
8.348620320000000,317,0x3F,0x00
8.348628580000000,318,0x82,0x00
8.348630260000000,318,0x0F,0x00
8.348631920000001,318,0x7A,0x0F
8.348639040000000,319,0x04,0x00
8.348640720000001,319,0x01,0x00
8.348642379999999,319,0xFF,0x56
8.348650279999999,320,0x84,0x00
8.348651940000000,320,0x01,0x00
8.348653620000000,320,0x56,0x01
8.348660300000001,321,0x84,0x00
8.348661959999999,321,0x41,0x00
8.348663640000000,321,0xAC,0x41
8.348670560000000,322,0x83,0x00
8.348672240000001,322,0x00,0x00
8.348673900000000,322,0x00,0x00
8.348680320000000,323,0x84,0x00
8.348681980000000,323,0x00,0x00
8.348683660000001,323,0x00,0x00
8.348690080000001,324,0x81,0x00
8.348691759999999,324,0x00,0x00
8.348693420000000,324,0x00,0x00
8.348699900000000,325,0x82,0x00
8.348701580000000,325,0x00,0x00
8.348703240000001,325,0x00,0x00
8.348709360000001,326,0x84,0x00
8.348711040000000,326,0x43,0x00
8.348712700000000,326,0xD4,0x43
8.348714360000001,326,0x03,0xD4
8.348720739999999,327,0x83,0x00
8.348722400000000,327,0x00,0x00
8.348724080000000,327,0x12,0x00
8.348730679999999,328,0x84,0x00
8.348732340000000,328,0x00,0x00
8.348734000000000,328,0x12,0x00
8.348740500000000,329,0x81,0x00
8.348742180000000,329,0x00,0x00
8.348743839999999,329,0x3F,0x00
8.348753820000001,330,0x82,0x00
8.348755479999999,330,0x00,0x00
8.348757160000000,330,0x3F,0x00
8.348771160000000,331,0x01,0x00
8.348772820000001,331,0x09,0x00
8.348774479999999,331,0xFF,0x19
8.348782379999999,332,0x81,0x00
8.348784060000000,332,0x09,0x00
8.348785720000000,332,0x1B,0x09
8.348793219999999,333,0x03,0x00
8.348794880000000,333,0x01,0x00
8.348796560000000,333,0xFF,0x56
8.348804299999999,334,0x83,0x00
8.348805960000000,334,0x01,0x00
8.348807640000000,334,0x52,0x01
8.348814800000000,335,0x81,0x00
8.348816480000000,335,0x03,0x00
8.348818140000001,335,0x03,0x03
8.348829320000000,336,0x01,0x00
8.348831000000001,336,0x02,0x00
8.348832659999999,336,0xFF,0x06
8.348854599999999,337,0x01,0x00
8.348856260000000,337,0x02,0x00
8.348857940000000,337,0xFF,0x06
8.348879719999999,338,0x01,0x00
8.348881380000000,338,0x02,0x00
8.348883060000000,338,0xFF,0x06
8.348904839999999,339,0x01,0x00
8.348906520000000,339,0x02,0x00
8.348908180000000,339,0xFF,0x03
8.348917580000000,340,0x83,0x00
8.348919240000001,340,0x00,0x00
8.348920919999999,340,0x00,0x00
8.348927200000000,341,0x84,0x00
8.348928859999999,341,0x00,0x00
8.348930540000000,341,0x00,0x00
8.348936980000000,342,0x81,0x00
8.348938640000000,342,0x00,0x00
8.348940300000001,342,0x00,0x00
8.348946780000000,343,0x82,0x00
8.348948460000001,343,0x00,0x00
8.348950120000000,343,0x00,0x00
8.348956240000000,344,0x81,0x00
8.348957920000000,344,0x25,0x00
8.348959580000001,344,0x1F,0x25
8.348961240000000,344,0x1D,0x1F
8.348967620000000,345,0x83,0x00
8.348969280000000,345,0x00,0x00
8.348970960000001,345,0x12,0x00
8.348977560000000,346,0x84,0x00
8.348979220000000,346,0x00,0x00
8.348980900000001,346,0x12,0x00
8.348987400000000,347,0x81,0x00
8.348989059999999,347,0x00,0x00
8.348990720000000,347,0x3F,0x00
8.349000920000000,348,0x82,0x00
8.349002580000001,348,0x00,0x00
8.349004239999999,348,0x3F,0x00
8.349011660000000,349,0x01,0x00
8.349013340000001,349,0x03,0x00
8.349015000000000,349,0xFF,0x03
8.349022659999999,350,0x81,0x00
8.349024340000000,350,0x03,0x00
8.349026000000000,350,0x05,0x03
8.349043220000000,351,0x01,0x00
8.349044900000001,351,0x11,0x00
8.349046560000000,351,0xFF,0x00
8.349054060000000,352,0x01,0x00
8.349055720000001,352,0x11,0x00
8.349057400000000,352,0xFF,0x2F
8.349064719999999,353,0x01,0x00
8.349066400000000,353,0x11,0x00
8.349068060000000,353,0xFF,0x32
8.349075380000000,354,0x01,0x00
8.349077039999999,354,0x11,0x00
8.349078700000000,354,0xFF,0xD2
8.349086600000000,355,0x01,0x00
8.349088260000000,355,0x03,0x00
8.349089940000001,355,0xFF,0x05
8.349097680000000,356,0x81,0x00
8.349099360000000,356,0x03,0x00
8.349101020000001,356,0x02,0x03
8.349108120000000,357,0x03,0x00
8.349109800000001,357,0x01,0x00
8.349111460000000,357,0xFF,0x52
8.349119260000000,358,0x83,0x00
8.349120940000001,358,0x01,0x00
8.349122599999999,358,0x56,0x01
8.349129300000000,359,0x81,0x00
8.349130960000000,359,0x09,0x00
8.349132620000001,359,0x19,0x09
8.349185719999999,360,0x01,0x00
8.349187400000000,360,0x02,0x00
8.349189060000000,360,0xFF,0x02
8.349200379999999,361,0x83,0x00
8.349202040000000,361,0x00,0x00
8.349203720000000,361,0x00,0x00
8.349210140000000,362,0x84,0x00
8.349211820000001,362,0x00,0x00
8.349213480000000,362,0x00,0x00
8.349219919999999,363,0x81,0x00
8.349221580000000,363,0x00,0x00
8.349223260000000,363,0x00,0x00
8.349229740000000,364,0x82,0x00
8.349231400000001,364,0x00,0x00
8.349233060000000,364,0x00,0x00
8.349239200000000,365,0x81,0x00
8.349240860000000,365,0x12,0x00
8.349242520000001,365,0x0B,0x12
8.349244199999999,365,0x61,0x0B
8.349245860000000,365,0x74,0x61
8.349252160000001,366,0x83,0x00
8.349253839999999,366,0x00,0x00
8.349255500000000,366,0x12,0x00
8.349262100000001,367,0x84,0x00
8.349263779999999,367,0x00,0x00
8.349265440000000,367,0x12,0x00
8.349271940000000,368,0x81,0x00
8.349273600000000,368,0x00,0x00
8.349275280000001,368,0x3F,0x00
8.349285000000000,369,0x83,0x00
8.349286680000001,369,0x00,0x00
8.349288339999999,369,0x00,0x00
8.349294680000000,370,0x84,0x00
8.349296340000000,370,0x00,0x00
8.349297999999999,370,0x00,0x00
8.349304320000000,371,0x81,0x00
8.349305980000000,371,0x00,0x00
8.349307659999999,371,0x00,0x00
8.349313960000000,372,0x82,0x00
8.349315640000000,372,0x00,0x00
8.349317299999999,372,0x00,0x00
8.349323139999999,373,0x00,0x00
8.349324800000000,373,0x00,0x00
8.349326460000000,373,0xFF,0x02
8.349328880000000,373,0xFF,0x02
8.349331160000000,373,0xFF,0x00
8.349333420000001,373,0xFF,0x00
8.349340079999999,374,0x83,0x00
8.349341760000000,374,0x00,0x00
8.349343420000000,374,0x12,0x00
8.349349739999999,375,0x84,0x00
8.349351400000000,375,0x00,0x00
8.349353060000000,375,0x12,0x00
8.349359379999999,376,0x81,0x00
8.349361040000000,376,0x00,0x00
8.349362720000000,376,0x3F,0x00
8.349368979999999,377,0x82,0x00
8.349370660000000,377,0x00,0x00
8.349372320000001,377,0x3F,0x00
8.349384239999999,378,0x82,0x00
8.349385900000000,378,0x00,0x00
8.349387580000000,378,0x3F,0x00
8.349395440000000,379,0x83,0x00
8.349397120000001,379,0x00,0x00
8.349398780000000,379,0x00,0x00
8.349405220000000,380,0x84,0x00
8.349406880000000,380,0x00,0x00
8.349408560000001,380,0x00,0x00
8.349414980000001,381,0x81,0x00
8.349416659999999,381,0x00,0x00
8.349418320000000,381,0x00,0x00
8.349424800000000,382,0x82,0x00
8.349426460000000,382,0x00,0x00
8.349428140000001,382,0x00,0x00
8.349434199999999,383,0x81,0x00
8.349435860000000,383,0x09,0x00
8.349437520000000,383,0x08,0x09
8.349439200000001,383,0x01,0x08
8.349440860000000,383,0x81,0x01
8.349442540000000,383,0x77,0x81
8.349448960000000,384,0x83,0x00
8.349450640000001,384,0x00,0x00
8.349452299999999,384,0x12,0x00
8.349458900000000,385,0x84,0x00
8.349460580000001,385,0x00,0x00
8.349462239999999,385,0x12,0x00
8.349468740000001,386,0x81,0x00
8.349470400000000,386,0x00,0x00
8.349472080000000,386,0x3F,0x00
8.349478580000000,387,0x82,0x00
8.349480240000000,387,0x00,0x00
8.349481900000001,387,0x3F,0x00
8.349491660000000,388,0x03,0x00
8.349493320000001,388,0x01,0x00
8.349494979999999,388,0xFF,0x56
8.349502899999999,389,0x83,0x00
8.349504580000000,389,0x01,0x00
8.349506240000000,389,0x57,0x01
8.349513580000000,390,0x03,0x00
8.349515240000001,390,0x10,0x00
8.349516899999999,390,0xFF,0x00
8.349524720000000,391,0x83,0x00
8.349526380000000,391,0x10,0x00
8.349528060000001,391,0x02,0x10
8.349535160000000,392,0x03,0x00
8.349536820000001,392,0x12,0x00
8.349538500000000,392,0xFF,0x0C
8.349546300000000,393,0x83,0x00
8.349547980000001,393,0x12,0x00
8.349549639999999,393,0x0D,0x12
8.349556679999999,394,0x03,0x00
8.349558340000000,394,0x14,0x00
8.349560020000000,394,0xFF,0x00
8.349567820000001,395,0x83,0x00
8.349569499999999,395,0x14,0x00
8.349571160000000,395,0x01,0x14
8.349577900000000,396,0x03,0x00
8.349579580000000,396,0x00,0x00
8.349581239999999,396,0xFF,0x12
8.349589180000001,397,0x83,0x00
8.349590839999999,397,0x00,0x00
8.349592520000000,397,0x73,0x00
8.349602559999999,398,0x83,0x00
8.349604220000000,398,0x00,0x00
8.349605880000000,398,0x00,0x00
8.349612199999999,399,0x84,0x00
8.349613860000000,399,0x00,0x00
8.349615540000000,399,0x00,0x00
8.349621980000000,400,0x81,0x00
8.349623640000001,400,0x00,0x00
8.349625300000000,400,0x00,0x00
8.349631779999999,401,0x82,0x00
8.349633460000000,401,0x00,0x00
8.349635120000000,401,0x00,0x00
8.349641240000000,402,0x81,0x00
8.349642920000001,402,0x05,0x00
8.349644580000000,402,0x90,0x05
8.349646240000000,402,0x8D,0x90
8.349652620000001,403,0x83,0x00
8.349654279999999,403,0x00,0x00
8.349655960000000,403,0x12,0x00
8.349662560000001,404,0x84,0x00
8.349664219999999,404,0x00,0x00
8.349665900000000,404,0x12,0x00
8.349672399999999,405,0x81,0x00
8.349674060000000,405,0x00,0x00
8.349675720000000,405,0x3F,0x00
8.349682220000000,406,0x82,0x00
8.349683900000000,406,0x00,0x00
8.349685559999999,406,0x3F,0x00
8.349692520000000,407,0x81,0x00
8.349694180000000,407,0x04,0x00
8.349695840000001,407,0x50,0x04
8.349704579999999,408,0x83,0x00
8.349706240000000,408,0x00,0x00
8.349707920000000,408,0x00,0x00
8.349714320000000,409,0x84,0x00
8.349716000000001,409,0x00,0x00
8.349717660000000,409,0x00,0x00
8.349724100000000,410,0x81,0x00
8.349725760000000,410,0x00,0x00
8.349727440000001,410,0x00,0x00
8.349733920000000,411,0x82,0x00
8.349735580000001,411,0x00,0x00
8.349737240000000,411,0x00,0x00
8.349743180000001,412,0x81,0x00
8.349744859999999,412,0x07,0x00
8.349746520000000,412,0x00,0x07
8.349748180000001,412,0x00,0x00
8.349754559999999,413,0x83,0x00
8.349756220000000,413,0x00,0x00
8.349757900000000,413,0x12,0x00
8.349764499999999,414,0x84,0x00
8.349766160000000,414,0x00,0x00
8.349767840000000,414,0x12,0x00
8.349774320000000,415,0x81,0x00
8.349776000000000,415,0x00,0x00
8.349777660000001,415,0x3F,0x00
8.349784160000000,416,0x82,0x00
8.349785839999999,416,0x00,0x00
8.349787500000000,416,0x3F,0x00
8.349795500000001,417,0x81,0x00
8.349797160000000,417,0x0F,0x00
8.349798840000000,417,0x07,0x0F
8.349805900000000,418,0x03,0x00
8.349807560000000,418,0x01,0x00
8.349809219999999,418,0xFF,0x57
8.349817000000000,419,0x83,0x00
8.349818660000000,419,0x01,0x00
8.349820340000001,419,0x5F,0x01
8.349827019999999,420,0x83,0x00
8.349828680000000,420,0x41,0x00
8.349830360000000,420,0xB5,0x41
8.349837279999999,421,0x83,0x00
8.349838940000000,421,0x00,0x00
8.349840600000000,421,0x00,0x00
8.349847020000000,422,0x84,0x00
8.349848679999999,422,0x00,0x00
8.349850360000000,422,0x00,0x00
8.349856800000000,423,0x81,0x00
8.349858460000000,423,0x00,0x00
8.349860120000001,423,0x00,0x00
8.349866600000000,424,0x82,0x00
8.349868280000001,424,0x00,0x00
8.349869940000000,424,0x00,0x00
8.349876060000000,425,0x83,0x00
8.349877740000000,425,0x43,0x00
8.349879400000001,425,0xAC,0x43
8.349881060000000,425,0x00,0xAC
8.349887440000000,426,0x83,0x00
8.349889100000000,426,0x00,0x00
8.349890780000001,426,0x12,0x00
8.349897380000000,427,0x84,0x00
8.349899040000000,427,0x00,0x00
8.349900699999999,427,0x12,0x00
8.349907200000001,428,0x81,0x00
8.349908879999999,428,0x00,0x00
8.349910540000000,428,0x3F,0x00
8.349917039999999,429,0x82,0x00
8.349918720000000,429,0x00,0x00
8.349920380000000,429,0x3F,0x00
8.349948180000000,430,0x02,0x00
8.349949860000001,430,0x02,0x00
8.349951519999999,430,0xFF,0x02
8.349962919999999,431,0x83,0x00
8.349964580000000,431,0x00,0x00
8.349966260000000,431,0x00,0x00
8.349972700000000,432,0x84,0x00
8.349974359999999,432,0x00,0x00
8.349976020000000,432,0x00,0x00
8.349982460000000,433,0x81,0x00
8.349984120000000,433,0x00,0x00
8.349985800000001,433,0x00,0x00
8.349992280000000,434,0x82,0x00
8.349993939999999,434,0x00,0x00
8.349995600000000,434,0x00,0x00
8.350001740000000,435,0x82,0x00
8.350003400000000,435,0x12,0x00
8.350005060000001,435,0x0B,0x12
8.350006740000000,435,0x81,0x0B
8.350008400000000,435,0x74,0x81
8.350014720000001,436,0x83,0x00
8.350016380000000,436,0x00,0x00
8.350018040000000,436,0x12,0x00
8.350024660000001,437,0x84,0x00
8.350026320000000,437,0x00,0x00
8.350027980000000,437,0x12,0x00
8.350034480000000,438,0x81,0x00
8.350036160000000,438,0x00,0x00
8.350037820000001,438,0x3F,0x00
8.350044320000000,439,0x82,0x00
8.350045980000001,439,0x00,0x00
8.350047660000000,439,0x3F,0x00
8.350055380000001,440,0x83,0x00
8.350057039999999,440,0x00,0x00
8.350058720000000,440,0x00,0x00
8.350065160000000,441,0x84,0x00
8.350066820000000,441,0x00,0x00
8.350068479999999,441,0x00,0x00
8.350074920000001,442,0x81,0x00
8.350076580000000,442,0x00,0x00
8.350078260000000,442,0x00,0x00
8.350084740000000,443,0x82,0x00
8.350086400000000,443,0x00,0x00
8.350088059999999,443,0x00,0x00
8.350094000000000,444,0x82,0x00
8.350095680000001,444,0x09,0x00
8.350097340000000,444,0x0B,0x09
8.350099000000000,444,0x41,0x0B
8.350100680000001,444,0x81,0x41
8.350102339999999,444,0x77,0x81
8.350108779999999,445,0x83,0x00
8.350110440000000,445,0x00,0x00
8.350112120000000,445,0x12,0x00
8.350118719999999,446,0x84,0x00
8.350120380000000,446,0x00,0x00
8.350122040000000,446,0x12,0x00
8.350128540000000,447,0x81,0x00
8.350130220000000,447,0x00,0x00
8.350131879999999,447,0x3F,0x00
8.350138380000001,448,0x82,0x00
8.350140039999999,448,0x00,0x00
8.350141720000000,448,0x3F,0x00
8.350150820000000,449,0x04,0x00
8.350152480000000,449,0x01,0x00
8.350154160000001,449,0xFF,0x56
8.350162220000000,450,0x84,0x00
8.350163880000000,450,0x01,0x00
8.350165560000001,450,0x57,0x01
8.350172779999999,451,0x04,0x00
8.350174440000000,451,0x10,0x00
8.350176120000000,451,0xFF,0x00
8.350183919999999,452,0x84,0x00
8.350185600000000,452,0x10,0x00
8.350187260000000,452,0x03,0x10
8.350194280000000,453,0x04,0x00
8.350195940000001,453,0x12,0x00
8.350197619999999,453,0xFF,0x0C
8.350205420000000,454,0x84,0x00
8.350207100000000,454,0x12,0x00
8.350208759999999,454,0x0D,0x12
8.350215860000000,455,0x04,0x00
8.350217539999999,455,0x14,0x00
8.350219200000000,455,0xFF,0x00
8.350227020000000,456,0x84,0x00
8.350228680000001,456,0x14,0x00
8.350230340000000,456,0x01,0x14
8.350241300000000,457,0x04,0x00
8.350242959999999,457,0x00,0x00
8.350244640000000,457,0xFF,0x12
8.350252640000001,458,0x84,0x00
8.350254300000000,458,0x00,0x00
8.350255960000000,458,0x73,0x00
8.350266260000000,459,0x83,0x00
8.350267920000000,459,0x00,0x00
8.350269600000001,459,0x00,0x00
8.350276040000001,460,0x84,0x00
8.350277699999999,460,0x00,0x00
8.350279360000000,460,0x00,0x00
8.350285800000000,461,0x81,0x00
8.350287460000001,461,0x00,0x00
8.350289139999999,461,0x00,0x00
8.350295620000001,462,0x82,0x00
8.350297279999999,462,0x00,0x00
8.350298960000000,462,0x00,0x00
8.350305080000000,463,0x82,0x00
8.350306740000001,463,0x05,0x00
8.350308399999999,463,0x68,0x05
8.350310080000000,463,0x8D,0x68
8.350316460000000,464,0x83,0x00
8.350318120000001,464,0x00,0x00
8.350319780000000,464,0x12,0x00
8.350326380000000,465,0x84,0x00
8.350328060000001,465,0x00,0x00
8.350329720000000,465,0x12,0x00
8.350336220000001,466,0x81,0x00
8.350337880000000,466,0x00,0x00
8.350339560000000,466,0x3F,0x00
8.350346060000000,467,0x82,0x00
8.350347720000000,467,0x00,0x00
8.350349380000001,467,0x3F,0x00
8.350356280000000,468,0x82,0x00
8.350357960000000,468,0x04,0x00
8.350359620000001,468,0xC8,0x04
8.350368220000000,469,0x83,0x00
8.350369880000001,469,0x00,0x00
8.350371559999999,469,0x00,0x00
8.350377979999999,470,0x84,0x00
8.350379640000000,470,0x00,0x00
8.350381300000000,470,0x00,0x00
8.350387740000000,471,0x81,0x00
8.350389420000001,471,0x00,0x00
8.350391080000000,471,0x00,0x00
8.350397559999999,472,0x82,0x00
8.350399220000000,472,0x00,0x00
8.350400880000000,472,0x00,0x00
8.350406820000000,473,0x82,0x00
8.350408500000000,473,0x07,0x00
8.350410159999999,473,0x00,0x07
8.350411820000000,473,0x00,0x00
8.350418200000000,474,0x83,0x00
8.350419880000000,474,0x00,0x00
8.350421539999999,474,0x12,0x00
8.350428140000000,475,0x84,0x00
8.350429800000001,475,0x00,0x00
8.350431479999999,475,0x12,0x00
8.350437980000001,476,0x81,0x00
8.350439639999999,476,0x00,0x00
8.350441300000000,476,0x3F,0x00
8.350447800000000,477,0x82,0x00
8.350449480000000,477,0x00,0x00
8.350451140000001,477,0x3F,0x00
8.350459140000000,478,0x82,0x00
8.350460800000000,478,0x0F,0x00
8.350462479999999,478,0x07,0x0F
8.350469479999999,479,0x04,0x00
8.350471140000000,479,0x01,0x00
8.350472800000000,479,0xFF,0x57
8.350480579999999,480,0x84,0x00
8.350482240000000,480,0x01,0x00
8.350483920000000,480,0x5F,0x01
8.350490600000001,481,0x84,0x00
8.350492259999999,481,0x41,0x00
8.350493940000000,481,0xB5,0x41
8.350500860000000,482,0x83,0x00
8.350502519999999,482,0x00,0x00
8.350504180000000,482,0x00,0x00
8.350510600000000,483,0x84,0x00
8.350512260000000,483,0x00,0x00
8.350513940000001,483,0x00,0x00
8.350520380000001,484,0x81,0x00
8.350522040000000,484,0x00,0x00
8.350523700000000,484,0x00,0x00
8.350530180000000,485,0x82,0x00
8.350531860000000,485,0x00,0x00
8.350533520000001,485,0x00,0x00
8.350539639999999,486,0x84,0x00
8.350541320000000,486,0x43,0x00
8.350542980000000,486,0xAC,0x43
8.350544640000001,486,0x00,0xAC
